Title: Envelopes
Plotname: Transient
No. Variables: 7
No. Points: 1001
Variables:
 0 time S
 1 hi0 V
 2 lo0 V
 3 hi1 V
 4 lo1 V
 5 hi2 V
 6 lo2 V
Values:
0	0.000000e+00
	2.000000e+00
	-2.051059e+00
	2.000000e+00
	-2.400254e+00
	2.000000e+00
	-2.000000e+00
1	1.000000e-12
	1.999375e+00
	-2.061933e+00
	1.999375e+00
	-2.422897e+00
	2.000000e+00
	-2.000000e+00
2	2.000000e-12
	1.997498e+00
	-2.072673e+00
	1.997498e+00
	-2.444165e+00
	2.000005e+00
	-1.999995e+00
3	3.000000e-12
	1.994367e+00
	-2.083000e+00
	1.994367e+00
	-2.465184e+00
	2.000025e+00
	-1.999975e+00
4	4.000000e-12
	1.990851e+00
	-2.092894e+00
	1.989975e+00
	-2.484634e+00
	2.000056e+00
	-1.999944e+00
5	5.000000e-12
	1.986459e+00
	-2.102439e+00
	1.984313e+00
	-2.503486e+00
	2.000077e+00
	-1.999923e+00
6	6.000000e-12
	1.980797e+00
	-2.111862e+00
	1.977372e+00
	-2.521414e+00
	2.000095e+00
	-1.999905e+00
7	7.000000e-12
	1.973856e+00
	-2.120762e+00
	1.969137e+00
	-2.537865e+00
	2.000123e+00
	-1.999877e+00
8	8.000000e-12
	1.965621e+00
	-2.129100e+00
	1.959592e+00
	-2.554176e+00
	2.000150e+00
	-1.999850e+00
9	9.000000e-12
	1.956076e+00
	-2.137335e+00
	1.948718e+00
	-2.569186e+00
	2.000174e+00
	-1.999826e+00
10	1.000000e-11
	1.945201e+00
	-2.145073e+00
	1.936492e+00
	-2.582790e+00
	2.000201e+00
	-1.999799e+00
11	1.100000e-11
	1.932976e+00
	-2.152170e+00
	1.922888e+00
	-2.596392e+00
	2.000229e+00
	-1.999771e+00
12	1.200000e-11
	1.919372e+00
	-2.159111e+00
	1.907878e+00
	-2.608618e+00
	2.000257e+00
	-1.999743e+00
13	1.300000e-11
	1.905429e+00
	-2.165518e+00
	1.891428e+00
	-2.619492e+00
	2.000284e+00
	-1.999716e+00
14	1.400000e-11
	1.893203e+00
	-2.171213e+00
	1.873499e+00
	-2.630331e+00
	2.000314e+00
	-1.999686e+00
15	1.500000e-11
	1.880363e+00
	-2.176875e+00
	1.854050e+00
	-2.639876e+00
	2.000343e+00
	-1.999657e+00
16	1.600000e-11
	1.868929e+00
	-2.181823e+00
	1.833030e+00
	-2.648111e+00
	2.000372e+00
	-1.999628e+00
17	1.700000e-11
	1.857380e+00
	-2.186215e+00
	1.810387e+00
	-2.656134e+00
	2.000403e+00
	-1.999597e+00
18	1.800000e-11
	1.846511e+00
	-2.190368e+00
	1.786057e+00
	-2.663075e+00
	2.000434e+00
	-1.999566e+00
19	1.900000e-11
	1.836184e+00
	-2.193712e+00
	1.760160e+00
	-2.668736e+00
	2.000465e+00
	-1.999535e+00
20	2.000000e-11
	1.826411e+00
	-2.196844e+00
	1.734075e+00
	-2.673853e+00
	2.000497e+00
	-1.999503e+00
21	2.100000e-11
	1.817512e+00
	-2.199362e+00
	1.706154e+00
	-2.678245e+00
	2.000530e+00
	-1.999470e+00
22	2.200000e-11
	1.809671e+00
	-2.201239e+00
	1.676308e+00
	-2.681376e+00
	2.000558e+00
	-1.999442e+00
23	2.300000e-11
	1.803108e+00
	-2.202907e+00
	1.644432e+00
	-2.683555e+00
	2.000574e+00
	-1.999426e+00
24	2.400000e-11
	1.798367e+00
	-2.203717e+00
	1.610410e+00
	-2.685432e+00
	2.000582e+00
	-1.999418e+00
25	2.500000e-11
	1.795842e+00
	-2.204342e+00
	1.574103e+00
	-2.686057e+00
	2.000596e+00
	-1.999404e+00
26	2.600000e-11
	1.795687e+00
	-2.204313e+00
	1.558370e+00
	-2.685579e+00
	2.000611e+00
	-1.999389e+00
27	2.700000e-11
	1.796104e+00
	-2.203896e+00
	1.599414e+00
	-2.684954e+00
	2.000667e+00
	-1.999333e+00
28	2.800000e-11
	1.799031e+00
	-2.203466e+00
	1.640139e+00
	-2.683928e+00
	2.000839e+00
	-1.999161e+00
29	2.900000e-11
	1.804398e+00
	-2.202840e+00
	1.680562e+00
	-2.682052e+00
	2.001010e+00
	-1.998990e+00
30	3.000000e-11
	1.811473e+00
	-2.201232e+00
	1.720770e+00
	-2.679783e+00
	2.001085e+00
	-1.998915e+00
31	3.100000e-11
	1.819843e+00
	-2.199355e+00
	1.760410e+00
	-2.676651e+00
	2.001226e+00
	-1.998774e+00
32	3.200000e-11
	1.829132e+00
	-2.196256e+00
	1.799324e+00
	-2.672259e+00
	2.001384e+00
	-1.998616e+00
33	3.300000e-11
	1.839271e+00
	-2.193125e+00
	1.838074e+00
	-2.666598e+00
	2.001482e+00
	-1.998518e+00
34	3.400000e-11
	1.849875e+00
	-2.189703e+00
	1.876323e+00
	-2.659656e+00
	2.001612e+00
	-1.998388e+00
35	3.500000e-11
	1.861129e+00
	-2.185472e+00
	1.913665e+00
	-2.652433e+00
	2.001741e+00
	-1.998259e+00
36	3.600000e-11
	1.872663e+00
	-2.181080e+00
	1.949972e+00
	-2.644198e+00
	2.001849e+00
	-1.998151e+00
37	3.700000e-11
	1.884437e+00
	-2.175791e+00
	1.986275e+00
	-2.634653e+00
	2.001960e+00
	-1.998040e+00
38	3.800000e-11
	1.896409e+00
	-2.170129e+00
	2.021471e+00
	-2.624520e+00
	2.002073e+00
	-1.997927e+00
39	3.900000e-11
	1.908551e+00
	-2.164229e+00
	2.055493e+00
	-2.613646e+00
	2.002171e+00
	-1.997829e+00
40	4.000000e-11
	1.920869e+00
	-2.157584e+00
	2.089386e+00
	-2.601450e+00
	2.002264e+00
	-1.997736e+00
41	4.100000e-11
	1.933222e+00
	-2.150642e+00
	2.121868e+00
	-2.589224e+00
	2.002359e+00
	-1.997641e+00
42	4.200000e-11
	1.945563e+00
	-2.143271e+00
	2.153744e+00
	-2.575621e+00
	2.002438e+00
	-1.997562e+00
43	4.300000e-11
	1.957821e+00
	-2.135273e+00
	2.184693e+00
	-2.560611e+00
	2.002513e+00
	-1.997487e+00
44	4.400000e-11
	1.970047e+00
	-2.127038e+00
	2.214539e+00
	-2.545116e+00
	2.002585e+00
	-1.997415e+00
45	4.500000e-11
	1.982188e+00
	-2.118431e+00
	2.243776e+00
	-2.528666e+00
	2.002640e+00
	-1.997360e+00
46	4.600000e-11
	1.994261e+00
	-2.109271e+00
	2.271697e+00
	-2.510737e+00
	2.002693e+00
	-1.997307e+00
47	4.700000e-11
	2.006210e+00
	-2.099726e+00
	2.299104e+00
	-2.492669e+00
	2.002739e+00
	-1.997261e+00
48	4.800000e-11
	2.017908e+00
	-2.090051e+00
	2.325190e+00
	-2.473219e+00
	2.002768e+00
	-1.997232e+00
49	4.900000e-11
	2.029385e+00
	-2.079913e+00
	2.350644e+00
	-2.452598e+00
	2.002796e+00
	-1.997204e+00
50	5.000000e-11
	2.040623e+00
	-2.069361e+00
	2.374973e+00
	-2.431578e+00
	2.003148e+00
	-1.997188e+00
51	5.100000e-11
	2.051527e+00
	-2.058487e+00
	2.398300e+00
	-2.408935e+00
	2.006279e+00
	-1.996878e+00
52	5.200000e-11
	2.062401e+00
	-2.047560e+00
	2.420943e+00
	-2.385868e+00
	2.008346e+00
	-1.996253e+00
53	5.300000e-11
	2.072962e+00
	-2.036306e+00
	2.442015e+00
	-2.361538e+00
	2.011054e+00
	-1.994376e+00
54	5.400000e-11
	2.083141e+00
	-2.024772e+00
	2.463034e+00
	-2.336237e+00
	2.013858e+00
	-1.992075e+00
55	5.500000e-11
	2.092887e+00
	-2.012998e+00
	2.482484e+00
	-2.310152e+00
	2.016255e+00
	-1.988944e+00
56	5.600000e-11
	2.102432e+00
	-2.001026e+00
	2.501198e+00
	-2.282673e+00
	2.018875e+00
	-1.986651e+00
57	5.700000e-11
	2.111716e+00
	-1.988899e+00
	2.519126e+00
	-2.254753e+00
	2.021323e+00
	-1.983942e+00
58	5.800000e-11
	2.120489e+00
	-1.976673e+00
	2.535577e+00
	-2.225339e+00
	2.023695e+00
	-1.981139e+00
59	5.900000e-11
	2.128724e+00
	-1.964432e+00
	2.551778e+00
	-2.195493e+00
	2.031551e+00
	-1.978742e+00
60	6.000000e-11
	2.136949e+00
	-1.952115e+00
	2.566788e+00
	-2.164290e+00
	2.075784e+00
	-1.976121e+00
61	6.100000e-11
	2.144593e+00
	-1.939761e+00
	2.580392e+00
	-2.132415e+00
	2.119526e+00
	-1.973674e+00
62	6.200000e-11
	2.151606e+00
	-1.927420e+00
	2.593952e+00
	-2.099552e+00
	2.161618e+00
	-1.971302e+00
63	6.300000e-11
	2.158547e+00
	-1.915247e+00
	2.606178e+00
	-2.065529e+00
	2.202999e+00
	-1.968979e+00
64	6.400000e-11
	2.164894e+00
	-1.903174e+00
	2.617052e+00
	-2.031194e+00
	2.243233e+00
	-1.966776e+00
65	6.500000e-11
	2.170555e+00
	-1.891225e+00
	2.627911e+00
	-1.995549e+00
	2.281983e+00
	-1.964674e+00
66	6.600000e-11
	2.176207e+00
	-1.879527e+00
	2.637456e+00
	-1.959242e+00
	2.320087e+00
	-1.962689e+00
67	6.700000e-11
	2.181121e+00
	-1.868050e+00
	2.645691e+00
	-1.922421e+00
	2.356394e+00
	-1.960962e+00
68	6.800000e-11
	2.185513e+00
	-1.856812e+00
	2.653739e+00
	-1.884580e+00
	2.392139e+00
	-1.959369e+00
69	6.900000e-11
	2.189652e+00
	-1.846222e+00
	2.660680e+00
	-1.845875e+00
	2.426161e+00
	-1.957939e+00
70	7.000000e-11
	2.193000e+00
	-1.836043e+00
	2.666341e+00
	-1.807125e+00
	2.459302e+00
	-1.956673e+00
71	7.100000e-11
	2.196132e+00
	-1.826558e+00
	2.671495e+00
	-1.767685e+00
	2.491177e+00
	-1.955570e+00
72	7.200000e-11
	2.198658e+00
	-1.817795e+00
	2.675888e+00
	-1.727645e+00
	2.521393e+00
	-1.954655e+00
73	7.300000e-11
	2.200534e+00
	-1.810151e+00
	2.679019e+00
	-1.687145e+00
	2.551240e+00
	-1.954005e+00
74	7.400000e-11
	2.202214e+00
	-1.803743e+00
	2.681200e+00
	-1.646309e+00
	2.579161e+00
	-1.953663e+00
75	7.500000e-11
	2.203024e+00
	-1.799082e+00
	2.683076e+00
	-1.605261e+00
	2.606165e+00
	-1.953516e+00
76	7.600000e-11
	2.203649e+00
	-1.796535e+00
	2.683701e+00
	-1.564129e+00
	2.632251e+00
	-1.952891e+00
77	7.700000e-11
	2.203597e+00
	-1.796717e+00
	2.683076e+00
	-1.599456e+00
	2.656580e+00
	-1.951015e+00
78	7.800000e-11
	2.202971e+00
	-1.799710e+00
	2.682302e+00
	-1.640248e+00
	2.680126e+00
	-1.947883e+00
79	7.900000e-11
	2.202032e+00
	-1.805057e+00
	2.680425e+00
	-1.680767e+00
	2.702770e+00
	-1.943491e+00
80	8.000000e-11
	2.200226e+00
	-1.812075e+00
	2.677294e+00
	-1.720897e+00
	2.723789e+00
	-1.937830e+00
81	8.100000e-11
	2.198350e+00
	-1.820397e+00
	2.673505e+00
	-1.760505e+00
	2.743551e+00
	-1.930888e+00
82	8.200000e-11
	2.195679e+00
	-1.829624e+00
	2.669113e+00
	-1.799480e+00
	2.763000e+00
	-1.922653e+00
83	8.300000e-11
	2.192548e+00
	-1.839727e+00
	2.663451e+00
	-1.838231e+00
	2.780929e+00
	-1.913108e+00
84	8.400000e-11
	2.189024e+00
	-1.850260e+00
	2.656709e+00
	-1.876455e+00
	2.797379e+00
	-1.902234e+00
85	8.500000e-11
	2.184683e+00
	-1.861476e+00
	2.649767e+00
	-1.913783e+00
	2.813057e+00
	-1.890008e+00
86	8.600000e-11
	2.180291e+00
	-1.872971e+00
	2.641532e+00
	-1.950099e+00
	2.828067e+00
	-1.876405e+00
87	8.700000e-11
	2.175150e+00
	-1.884704e+00
	2.631987e+00
	-1.986406e+00
	2.841670e+00
	-1.861395e+00
88	8.800000e-11
	2.169489e+00
	-1.896635e+00
	2.622320e+00
	-2.021589e+00
	2.853896e+00
	-1.844944e+00
89	8.900000e-11
	2.163570e+00
	-1.908719e+00
	2.611446e+00
	-2.055612e+00
	2.865323e+00
	-1.827016e+00
90	9.000000e-11
	2.156934e+00
	-1.920963e+00
	2.599220e+00
	-2.089507e+00
	2.876197e+00
	-1.807566e+00
91	9.100000e-11
	2.149992e+00
	-1.933271e+00
	2.586670e+00
	-2.121984e+00
	2.885742e+00
	-1.786546e+00
92	9.200000e-11
	2.142669e+00
	-1.945576e+00
	2.573067e+00
	-2.153859e+00
	2.893977e+00
	-1.763903e+00
93	9.300000e-11
	2.134688e+00
	-1.957839e+00
	2.558057e+00
	-2.184798e+00
	2.900924e+00
	-1.739573e+00
94	9.400000e-11
	2.126452e+00
	-1.970065e+00
	2.542744e+00
	-2.214645e+00
	2.907866e+00
	-1.714336e+00
95	9.500000e-11
	2.117877e+00
	-1.982249e+00
	2.526293e+00
	-2.243887e+00
	2.913527e+00
	-1.688250e+00
96	9.600000e-11
	2.108749e+00
	-1.994318e+00
	2.508365e+00
	-2.271808e+00
	2.917919e+00
	-1.660330e+00
97	9.700000e-11
	2.099204e+00
	-2.006228e+00
	2.490380e+00
	-2.299204e+00
	2.921051e+00
	-1.630483e+00
98	9.800000e-11
	2.089560e+00
	-2.017947e+00
	2.470930e+00
	-2.325290e+00
	2.923303e+00
	-1.598608e+00
99	9.900000e-11
	2.079456e+00
	-2.029437e+00
	2.450361e+00
	-2.350730e+00
	2.925179e+00
	-1.564586e+00
100	1.000000e-10
	2.068939e+00
	-2.040654e+00
	2.429342e+00
	-2.375060e+00
	2.925804e+00
	-1.593418e+00
101	1.010000e-10
	2.058065e+00
	-2.051563e+00
	2.406698e+00
	-2.398393e+00
	2.925179e+00
	-1.644206e+00
102	1.020000e-10
	2.047175e+00
	-2.062437e+00
	2.383734e+00
	-2.421036e+00
	2.923303e+00
	-1.694859e+00
103	1.030000e-10
	2.035959e+00
	-2.073002e+00
	2.359405e+00
	-2.442093e+00
	2.920888e+00
	-1.744935e+00
104	1.040000e-10
	2.024464e+00
	-2.083176e+00
	2.334182e+00
	-2.463113e+00
	2.917757e+00
	-1.794314e+00
105	1.050000e-10
	2.012731e+00
	-2.092921e+00
	2.308097e+00
	-2.482563e+00
	2.913365e+00
	-1.842876e+00
106	1.060000e-10
	2.000800e+00
	-2.102466e+00
	2.280725e+00
	-2.501260e+00
	2.907704e+00
	-1.890472e+00
107	1.070000e-10
	1.988716e+00
	-2.111749e+00
	2.252805e+00
	-2.519189e+00
	2.900762e+00
	-1.937821e+00
108	1.080000e-10
	1.976519e+00
	-2.120522e+00
	2.223491e+00
	-2.535639e+00
	2.893665e+00
	-1.984291e+00
109	1.090000e-10
	1.964293e+00
	-2.128757e+00
	2.193645e+00
	-2.551848e+00
	2.885430e+00
	-2.029489e+00
110	1.100000e-10
	1.952020e+00
	-2.136979e+00
	2.162549e+00
	-2.566858e+00
	2.875885e+00
	-2.073722e+00
111	1.110000e-10
	1.939712e+00
	-2.144619e+00
	2.130674e+00
	-2.580461e+00
	2.865011e+00
	-2.117458e+00
112	1.120000e-10
	1.927407e+00
	-2.151634e+00
	2.097925e+00
	-2.594004e+00
	2.853197e+00
	-2.159509e+00
113	1.130000e-10
	1.915186e+00
	-2.158575e+00
	2.063902e+00
	-2.606230e+00
	2.840971e+00
	-2.200890e+00
114	1.140000e-10
	1.903118e+00
	-2.164917e+00
	2.029683e+00
	-2.617104e+00
	2.827368e+00
	-2.241080e+00
115	1.150000e-10
	1.891207e+00
	-2.170579e+00
	1.994159e+00
	-2.627944e+00
	2.812357e+00
	-2.279831e+00
116	1.160000e-10
	1.879488e+00
	-2.176226e+00
	1.957853e+00
	-2.637489e+00
	2.796104e+00
	-2.317923e+00
117	1.170000e-10
	1.867998e+00
	-2.181142e+00
	1.921157e+00
	-2.645724e+00
	2.779653e+00
	-2.354230e+00
118	1.180000e-10
	1.856781e+00
	-2.185534e+00
	1.883445e+00
	-2.653773e+00
	2.761725e+00
	-2.389919e+00
119	1.190000e-10
	1.846182e+00
	-2.189668e+00
	1.844873e+00
	-2.660715e+00
	2.742275e+00
	-2.423942e+00
120	1.200000e-10
	1.836008e+00
	-2.193011e+00
	1.806123e+00
	-2.666376e+00
	2.721792e+00
	-2.457025e+00
121	1.210000e-10
	1.826525e+00
	-2.196142e+00
	1.766820e+00
	-2.671484e+00
	2.700772e+00
	-2.488900e+00
122	1.220000e-10
	1.817765e+00
	-2.198669e+00
	1.726920e+00
	-2.675876e+00
	2.678129e+00
	-2.519102e+00
123	1.230000e-10
	1.810125e+00
	-2.200545e+00
	1.686564e+00
	-2.679007e+00
	2.653799e+00
	-2.548949e+00
124	1.240000e-10
	1.803724e+00
	-2.202212e+00
	1.645875e+00
	-2.681191e+00
	2.629250e+00
	-2.576870e+00
125	1.250000e-10
	1.799066e+00
	-2.203023e+00
	1.604976e+00
	-2.683068e+00
	2.603165e+00
	-2.603816e+00
126	1.260000e-10
	1.796538e+00
	-2.203648e+00
	1.563992e+00
	-2.683693e+00
	2.575244e+00
	-2.629901e+00
127	1.270000e-10
	1.796717e+00
	-2.203596e+00
	1.599455e+00
	-2.683068e+00
	2.547043e+00
	-2.654231e+00
128	1.280000e-10
	1.799706e+00
	-2.202971e+00
	1.640249e+00
	-2.682303e+00
	2.517196e+00
	-2.677711e+00
129	1.290000e-10
	1.805051e+00
	-2.202032e+00
	1.680766e+00
	-2.680426e+00
	2.485669e+00
	-2.700355e+00
130	1.300000e-10
	1.812080e+00
	-2.200223e+00
	1.720894e+00
	-2.677295e+00
	2.453794e+00
	-2.721374e+00
131	1.310000e-10
	1.820397e+00
	-2.198346e+00
	1.760508e+00
	-2.673505e+00
	2.419772e+00
	-2.741114e+00
132	1.320000e-10
	1.829620e+00
	-2.195680e+00
	1.799480e+00
	-2.669113e+00
	2.385188e+00
	-2.760564e+00
133	1.330000e-10
	1.839727e+00
	-2.192549e+00
	1.838231e+00
	-2.663452e+00
	2.348881e+00
	-2.778492e+00
134	1.340000e-10
	1.850258e+00
	-2.189028e+00
	1.876450e+00
	-2.656700e+00
	2.311620e+00
	-2.794943e+00
135	1.350000e-10
	1.861476e+00
	-2.184679e+00
	1.913790e+00
	-2.649759e+00
	2.272870e+00
	-2.810584e+00
136	1.360000e-10
	1.872972e+00
	-2.180287e+00
	1.950100e+00
	-2.641524e+00
	2.233253e+00
	-2.825594e+00
137	1.370000e-10
	1.884704e+00
	-2.175146e+00
	1.986407e+00
	-2.631979e+00
	2.191872e+00
	-2.839197e+00
138	1.380000e-10
	1.896635e+00
	-2.169485e+00
	2.021583e+00
	-2.622324e+00
	2.150155e+00
	-2.851423e+00
139	1.390000e-10
	1.908719e+00
	-2.163576e+00
	2.055605e+00
	-2.611450e+00
	2.106619e+00
	-2.862790e+00
140	1.400000e-10
	1.920963e+00
	-2.156932e+00
	2.089516e+00
	-2.599224e+00
	2.062386e+00
	-2.873664e+00
141	1.410000e-10
	1.933271e+00
	-2.149990e+00
	2.121987e+00
	-2.586678e+00
	2.017285e+00
	-2.883209e+00
142	1.420000e-10
	1.945576e+00
	-2.142664e+00
	2.154353e+00
	-2.573075e+00
	1.970819e+00
	-2.891444e+00
143	1.430000e-10
	1.957840e+00
	-2.134692e+00
	2.243866e+00
	-2.558065e+00
	1.923470e+00
	-2.898386e+00
144	1.440000e-10
	1.970065e+00
	-2.126457e+00
	2.342081e+00
	-2.542733e+00
	1.875829e+00
	-2.905309e+00
145	1.450000e-10
	1.982249e+00
	-2.117876e+00
	2.480221e+00
	-2.526283e+00
	1.827201e+00
	-2.910970e+00
146	1.460000e-10
	1.994316e+00
	-2.108746e+00
	2.796827e+00
	-2.508354e+00
	1.777737e+00
	-2.915362e+00
147	1.470000e-10
	2.006229e+00
	-2.099201e+00
	3.905994e+00
	-2.490370e+00
	1.727567e+00
	-2.918494e+00
148	1.480000e-10
	2.017947e+00
	-2.089563e+00
	5.747769e+00
	-2.470921e+00
	1.676833e+00
	-2.920752e+00
149	1.490000e-10
	2.029436e+00
	-2.079456e+00
	6.192000e+00
	-2.450373e+00
	1.626045e+00
	-2.922628e+00
150	1.500000e-10
	2.040656e+00
	-2.068937e+00
	6.372090e+00
	-2.429354e+00
	1.595377e+00
	-2.923253e+00
151	1.510000e-10
	2.051563e+00
	-2.058063e+00
	6.550083e+00
	-2.406711e+00
	1.646165e+00
	-2.922628e+00
152	1.520000e-10
	2.062438e+00
	-2.047177e+00
	6.685517e+00
	-2.383729e+00
	1.696820e+00
	-2.920752e+00
153	1.530000e-10
	2.073000e+00
	-2.035959e+00
	6.797363e+00
	-2.359400e+00
	1.746910e+00
	-2.918298e+00
154	1.540000e-10
	2.083178e+00
	-2.024463e+00
	6.893829e+00
	-2.334169e+00
	1.796297e+00
	-2.915167e+00
155	1.550000e-10
	2.092922e+00
	-2.012731e+00
	6.979149e+00
	-2.308083e+00
	1.844867e+00
	-2.910775e+00
156	1.560000e-10
	2.102467e+00
	-2.000801e+00
	7.055849e+00
	-2.280737e+00
	1.892486e+00
	-2.905113e+00
157	1.570000e-10
	2.111747e+00
	-2.024694e+00
	7.125583e+00
	-2.252816e+00
	1.939836e+00
	-2.898172e+00
158	1.580000e-10
	2.120523e+00
	-2.066282e+00
	7.189506e+00
	-2.223490e+00
	1.986327e+00
	-2.891057e+00
159	1.590000e-10
	2.128759e+00
	-2.107663e+00
	7.248459e+00
	-2.193644e+00
	2.031540e+00
	-2.882822e+00
160	1.600000e-10
	2.136981e+00
	-2.146413e+00
	7.303081e+00
	-2.162540e+00
	2.075773e+00
	-2.873277e+00
161	1.610000e-10
	2.144617e+00
	-2.182720e+00
	7.353869e+00
	-2.130665e+00
	2.119538e+00
	-2.862403e+00
162	1.620000e-10
	2.151633e+00
	-2.216742e+00
	7.401219e+00
	-2.097935e+00
	2.161631e+00
	-2.850644e+00
163	1.630000e-10
	2.158574e+00
	-2.248618e+00
	7.445452e+00
	-2.063912e+00
	2.203012e+00
	-2.838418e+00
164	1.640000e-10
	2.164920e+00
	-2.278464e+00
	7.486833e+00
	-2.029685e+00
	2.243223e+00
	-2.824815e+00
165	1.650000e-10
	2.170581e+00
	-2.306385e+00
	7.525583e+00
	-1.994154e+00
	2.281974e+00
	-2.809805e+00
166	1.660000e-10
	2.176233e+00
	-2.333052e+00
	7.561890e+00
	-1.957847e+00
	2.320112e+00
	-2.793542e+00
167	1.670000e-10
	2.180625e+00
	-2.359137e+00
	7.595912e+00
	-1.921163e+00
	2.356419e+00
	-2.777091e+00
168	1.680000e-10
	2.183756e+00
	-2.383467e+00
	7.627788e+00
	-1.883447e+00
	2.392155e+00
	-2.759163e+00
169	1.690000e-10
	2.185633e+00
	-2.406110e+00
	7.657634e+00
	-1.844870e+00
	2.426177e+00
	-2.739713e+00
170	1.700000e-10
	2.186258e+00
	-2.427130e+00
	7.685555e+00
	-1.806120e+00
	2.459308e+00
	-2.719231e+00
171	1.710000e-10
	2.185633e+00
	-2.446579e+00
	7.711640e+00
	-1.766821e+00
	2.491184e+00
	-2.698212e+00
172	1.720000e-10
	2.183756e+00
	-2.464508e+00
	7.735970e+00
	-1.726921e+00
	2.521384e+00
	-2.675568e+00
173	1.730000e-10
	2.180625e+00
	-2.480958e+00
	7.758613e+00
	-1.686563e+00
	2.551230e+00
	-2.651238e+00
174	1.740000e-10
	2.176233e+00
	-2.495968e+00
	7.779633e+00
	-1.645874e+00
	2.579151e+00
	-2.626773e+00
175	1.750000e-10
	2.170571e+00
	-2.509572e+00
	7.799083e+00
	-1.604976e+00
	2.606182e+00
	-2.600687e+00
176	1.760000e-10
	2.163630e+00
	-2.521797e+00
	7.817011e+00
	-1.563992e+00
	2.632267e+00
	-2.572766e+00
177	1.770000e-10
	2.155395e+00
	-2.532672e+00
	7.833462e+00
	-1.523044e+00
	2.656597e+00
	-2.544581e+00
178	1.780000e-10
	2.145850e+00
	-2.542217e+00
	7.848472e+00
	-1.482250e+00
	2.680145e+00
	-2.514734e+00
179	1.790000e-10
	2.134975e+00
	-2.550452e+00
	7.862075e+00
	-1.441733e+00
	2.702789e+00
	-2.483231e+00
180	1.800000e-10
	2.122749e+00
	-2.557393e+00
	7.874301e+00
	-1.401605e+00
	2.723808e+00
	-2.451356e+00
181	1.810000e-10
	2.109146e+00
	-2.563055e+00
	7.885175e+00
	-1.361991e+00
	2.743532e+00
	-2.417333e+00
182	1.820000e-10
	2.094136e+00
	-2.567447e+00
	7.894720e+00
	-1.323550e+00
	2.762981e+00
	-2.382830e+00
183	1.830000e-10
	2.089331e+00
	-2.570578e+00
	7.902955e+00
	-1.286210e+00
	2.780910e+00
	-2.346524e+00
184	1.840000e-10
	2.096272e+00
	-2.572455e+00
	7.909897e+00
	-1.251143e+00
	2.797360e+00
	-2.309290e+00
185	1.850000e-10
	2.101933e+00
	-2.573080e+00
	7.915558e+00
	-1.226266e+00
	2.813070e+00
	-2.270540e+00
186	1.860000e-10
	2.106326e+00
	-2.572455e+00
	7.919950e+00
	-1.205246e+00
	2.828080e+00
	-2.230955e+00
187	1.870000e-10
	2.109457e+00
	-2.570578e+00
	7.923082e+00
	-1.182603e+00
	2.841684e+00
	-2.189574e+00
188	1.880000e-10
	2.111333e+00
	-2.567447e+00
	7.924958e+00
	-1.158273e+00
	2.853910e+00
	-2.147921e+00
189	1.890000e-10
	2.111959e+00
	-2.563055e+00
	7.925583e+00
	-1.132188e+00
	2.865359e+00
	-2.104415e+00
190	1.900000e-10
	2.111333e+00
	-2.557393e+00
	7.924958e+00
	-1.104267e+00
	2.876233e+00
	-2.060182e+00
191	1.910000e-10
	2.109457e+00
	-2.550452e+00
	7.923082e+00
	-1.074420e+00
	2.885778e+00
